
T1F94 000:291 SEGGER J-Link V5.12e Log File (0000ms, 0273ms total)
T1F94 000:291 DLL Compiled: Apr 29 2016 15:03:58 (0000ms, 0273ms total)
T1F94 000:291 Logging started @ 2018-06-26 18:03 (0000ms, 0273ms total)
T1F94 000:291 JLINK_SetWarnOutHandler(...) (0000ms, 0273ms total)
T1F94 000:291 JLINK_OpenEx(...)
Firmware: J-Link ARM V8 compiled Nov 28 2014 13:44:46
Hardware: V8.00
S/N: 68000020  returns O.K. (0269ms, 0542ms total)
T1F94 000:560 JLINK_SetErrorOutHandler(...) (0000ms, 0542ms total)
T1F94 000:560 JLINK_ExecCommand("ProjectFile = "D:\ARM\manufacturers\LPC\lpc1343\bps_3\JLinkSettings.ini"", ...)  returns 0x00 (0000ms, 0542ms total)
T1F94 000:560 JLINK_ExecCommand("Device = LPC1343FBD48", ...)Device "LPC1343" selected.  returns 0x00 (0000ms, 0542ms total)
T1F94 000:560 JLINK_ExecCommand("DisableConnectionTimeout", ...)  returns 0x01 (0000ms, 0542ms total)
T1F94 000:560 JLINK_GetHardwareVersion()  returns 0x13880 (0000ms, 0542ms total)
T1F94 000:560 JLINK_GetDLLVersion()  returns 51205 (0000ms, 0542ms total)
T1F94 000:560 JLINK_GetFirmwareString(...) (0000ms, 0542ms total)
T1F94 000:561 JLINK_GetDLLVersion()  returns 51205 (0000ms, 0542ms total)
T1F94 000:561 JLINK_GetCompileDateTime() (0000ms, 0542ms total)
T1F94 000:561 JLINK_GetFirmwareString(...) (0000ms, 0542ms total)
T1F94 000:561 JLINK_GetHardwareVersion()  returns 0x13880 (0000ms, 0542ms total)
T1F94 000:561 JLINK_TIF_Select(JLINKARM_TIF_SWD)  returns 0x00 (0004ms, 0546ms total)
T1F94 000:565 JLINK_SetSpeed(1000) (0001ms, 0547ms total)
T1F94 000:566 JLINK_GetId() >0x108 TIF>Found SWD-DP with ID 0x2BA01477 >0x0D TIF> >0x28 TIF> >0x0D TIF> >0x28 TIF> >0x0D TIF> >0x28 TIF> >0x0D TIF> >0x28 TIF> >0x0D TIF> >0x21 TIF> >0x0D TIF> >0x28 TIF> >0x0D TIF> >0x28 TIF> >0x0D TIF> >0x21 TIF> >0x0D TIF> >0x21 TIF> >0x0D TIF> >0x21 TIF> >0x0D TIF> >0x28 TIF> >0x0D TIF> >0x28 TIF> >0x0D TIF> >0x28 TIF> >0x0D TIF> >0x21 TIF> >0x0D TIF> >0x21 TIF> >0x0D TIF> >0x28 TIF> >0x0D TIF> >0x21 TIF> >0x0D TIF> >0x21 TIF>Found Cortex-M3 r2p0, Little endian.
 -- CPU_ReadMem(4 bytes @ 0xE000EDF0) -- CPU_ReadMem(4 bytes @ 0xE0002000)FPUnit: 6 code (BP) slots and 2 literal slots -- CPU_ReadMem(4 bytes @ 0xE000EDFC) -- CPU_ReadMem(4 bytes @ 0xE0001000) -- CPU_WriteMem(4 bytes @ 0xE0001000) -- CPU_ReadMem(4 bytes @ 0xE000ED88) -- CPU_WriteMem(4 bytes @ 0xE000ED88) -- CPU_ReadMem(4 bytes @ 0xE000ED88) -- CPU_WriteMem(4 bytes @ 0xE000ED88)CoreSight components:ROMTbl 0 @ E00FF000 -- CPU_ReadMem(16 bytes @ 0xE00FF000) -- CPU_ReadMem(16 bytes @ 0xE000EFF0)
 -- CPU_ReadMem(16 bytes @ 0xE000EFE0)ROMTbl 0 [0]: FFF0F000, CID: B105E00D, PID: 002BB000 SCS -- CPU_ReadMem(16 bytes @ 0xE0001FF0) -- CPU_ReadMem(16 bytes @ 0xE0001FE0)ROMTbl 0 [1]: FFF02000, CID: B105E00D, PID: 002BB002 DWT -- CPU_ReadMem(16 bytes @ 0xE0002FF0) -- CPU_ReadMem(16 bytes @ 0xE0002FE0)ROMTbl 0 [2]: FFF03000, CID: B105E00D, PID: 002BB003 FPB -- CPU_ReadMem(16 bytes @ 0xE0000FF0) -- CPU_ReadMem(16 bytes @ 0xE0000FE0)ROMTbl 0 [3]: FFF01000, CID: B105E00D, PID: 002BB001 ITM
 -- CPU_ReadMem(16 bytes @ 0xE00FF010) -- CPU_ReadMem(16 bytes @ 0xE0040FF0) -- CPU_ReadMem(16 bytes @ 0xE0040FE0)ROMTbl 0 [4]: FFF41000, CID: B105900D, PID: 002BB923 TPIU-Lite -- CPU_ReadMem(16 bytes @ 0xE0041FF0) -- CPU_ReadMem(16 bytes @ 0xE0041FE0)ROMTbl 0 [5]: FFF42000, CID: B105900D, PID: 002BB924 ETM-M3 >0x0D TIF> >0x21 TIF>  returns 0x2BA01477 (0066ms, 0613ms total)
T1F94 000:632 JLINK_GetDLLVersion()  returns 51205 (0000ms, 0613ms total)
T1F94 000:632 JLINK_CORE_GetFound()  returns 0x30000FF (0000ms, 0613ms total)
T1F94 000:632 JLINK_GetDebugInfo(0x100) -- Value=0xE00FF000  returns 0x00 (0000ms, 0613ms total)
T1F94 000:632 JLINK_GetDebugInfo(0x100) -- Value=0xE00FF000  returns 0x00 (0000ms, 0613ms total)
T1F94 000:632 JLINK_GetDebugInfo(0x101) -- Value=0xE0041000  returns 0x00 (0000ms, 0613ms total)
T1F94 000:632 JLINK_GetDebugInfo(0x102) -- Value=0x00000000  returns 0x00 (0000ms, 0613ms total)
T1F94 000:632 JLINK_GetDebugInfo(0x103) -- Value=0xE0040000  returns 0x00 (0000ms, 0613ms total)
T1F94 000:632 JLINK_GetDebugInfo(0x104) -- Value=0xE0000000  returns 0x00 (0000ms, 0613ms total)
T1F94 000:632 JLINK_GetDebugInfo(0x105) -- Value=0xE0001000  returns 0x00 (0000ms, 0613ms total)
T1F94 000:632 JLINK_GetDebugInfo(0x106) -- Value=0xE0002000  returns 0x00 (0000ms, 0613ms total)
T1F94 000:632 JLINK_GetDebugInfo(0x107) -- Value=0xE000E000  returns 0x00 (0000ms, 0613ms total)
T1F94 000:632 JLINK_GetDebugInfo(0x10C) -- Value=0xE000EDF0  returns 0x00 (0000ms, 0613ms total)
T1F94 000:632 JLINK_ReadMemU32(0xE000ED00, 0x0001 Items, ...) -- CPU is running -- CPU_ReadMem(4 bytes @ 0xE000ED00) - Data: 30 C2 2F 41  returns 0x01 (0002ms, 0615ms total)
T1F94 000:634 JLINK_SetResetType(JLINKARM_RESET_TYPE_NORMAL)  returns JLINKARM_RESET_TYPE_NORMAL (0000ms, 0615ms total)
T1F94 000:634 JLINK_Reset() -- CPU is running -- CPU_WriteMem(4 bytes @ 0xE000EDF0) -- CPU is running -- CPU_WriteMem(4 bytes @ 0xE000EDFC) >0x35 TIF> -- CPU is running -- CPU_WriteMem(4 bytes @ 0xE000ED0C) -- CPU is running -- CPU_ReadMem(4 bytes @ 0xE000EDF0) -- CPU is running -- CPU_ReadMem(4 bytes @ 0xE000EDF0) -- CPU is running -- CPU_WriteMem(4 bytes @ 0xE000EDF0) -- CPU is running -- CPU_WriteMem(4 bytes @ 0xE000EDFC) -- CPU is running -- CPU_ReadMem(4 bytes @ 0xE000EDF0)
 -- CPU_WriteMem(4 bytes @ 0xE000EDFC) -- CPU_WriteMem(4 bytes @ 0xE000EDFC) -- CPU_WriteMem(4 bytes @ 0xE000EDFC) -- CPU_WriteMem(4 bytes @ 0xE000EDFC) -- CPU_WriteMem(4 bytes @ 0xE000EDFC) -- CPU_WriteMem(4 bytes @ 0xE0001050) -- CPU_WriteMem(4 bytes @ 0xE0001054) -- CPU_WriteMem(4 bytes @ 0xE0001058) -- CPU_ReadMem(4 bytes @ 0xE0001000) -- CPU_WriteMem(4 bytes @ 0xE000EDFC) -- CPU_WriteMem(4 bytes @ 0xE0001058) -- CPU_ReadMem(4 bytes @ 0x00000004) -- CPU_ReadMem(4 bytes @ 0xE0002000)
 -- CPU_ReadMem(4 bytes @ 0xE0002008) -- CPU_ReadMem(4 bytes @ 0xE000200C) -- CPU_ReadMem(4 bytes @ 0xE0002010) -- CPU_ReadMem(4 bytes @ 0xE0002014) -- CPU_ReadMem(4 bytes @ 0xE0002018) -- CPU_ReadMem(4 bytes @ 0xE000201C) -- CPU_WriteMem(4 bytes @ 0xE0002000) -- CPU_WriteMem(4 bytes @ 0xE0002008) -- CPU_WriteMem(4 bytes @ 0xE000200C) -- CPU_WriteMem(4 bytes @ 0xE0002010) -- CPU_WriteMem(4 bytes @ 0xE0002014) -- CPU_WriteMem(4 bytes @ 0xE0002018) -- CPU_WriteMem(4 bytes @ 0xE000201C)
 -- CPU_ReadMem(4 bytes @ 0xE0001000) -- CPU_WriteMem(4 bytes @ 0xE0002000) -- CPU_WriteMem(4 bytes @ 0xE0002008) -- CPU_WriteMem(4 bytes @ 0xE000200C) -- CPU_WriteMem(4 bytes @ 0xE0002010) -- CPU_WriteMem(4 bytes @ 0xE0002014) -- CPU_WriteMem(4 bytes @ 0xE0002018) -- CPU_WriteMem(4 bytes @ 0xE000201C) -- CPU_WriteMem(4 bytes @ 0xE0002000) -- CPU_ReadMem(4 bytes @ 0xE000EDFC) -- CPU_ReadMem(4 bytes @ 0xE0001000) (0273ms, 0888ms total)
T1F94 000:907 JLINK_ReadReg(R15 (PC))  returns 0x000001C4 (0000ms, 0888ms total)
T1F94 000:907 JLINK_ReadReg(XPSR)  returns 0x61000000 (0000ms, 0888ms total)
T1F94 000:907 JLINK_Halt()  returns 0x00 (0000ms, 0888ms total)
T1F94 000:907 JLINK_IsHalted()  returns TRUE (0000ms, 0888ms total)
T1F94 000:907 JLINK_ReadMemU32(0xE000EDF0, 0x0001 Items, ...) -- CPU_ReadMem(4 bytes @ 0xE000EDF0) - Data: 03 00 03 00  returns 0x01 (0001ms, 0889ms total)
T1F94 000:908 JLINK_WriteU32(0xE000EDF0, 0xA05F0003) -- CPU_WriteMem(4 bytes @ 0xE000EDF0)  returns 0x00 (0001ms, 0890ms total)
T1F94 000:909 JLINK_WriteU32(0xE000EDFC, 0x01000000) -- CPU_WriteMem(4 bytes @ 0xE000EDFC)  returns 0x00 (0001ms, 0891ms total)
T1F94 000:910 JLINK_GetHWStatus(...)  returns 0x00 (0001ms, 0892ms total)
T1F94 000:911 JLINK_GetNumBPUnits(Type = 0xFFFFFF00)  returns 0x06 (0000ms, 0892ms total)
T1F94 000:911 JLINK_GetNumBPUnits(Type = 0xF0)  returns 0x2000 (0000ms, 0892ms total)
T1F94 000:911 JLINK_GetNumWPUnits()  returns 0x04 (0000ms, 0892ms total)
T1F94 000:911 JLINK_GetSpeed()  returns 0x3E8 (0000ms, 0892ms total)
T1F94 000:911 JLINK_ReadMemU32(0xE000E004, 0x0001 Items, ...) -- CPU_ReadMem(4 bytes @ 0xE000E004) - Data: 01 00 00 00  returns 0x01 (0001ms, 0893ms total)
T1F94 000:912 JLINK_ReadMemU32(0xE000E004, 0x0001 Items, ...) -- CPU_ReadMem(4 bytes @ 0xE000E004) - Data: 01 00 00 00  returns 0x01 (0001ms, 0894ms total)
T1F94 000:913 JLINK_WriteMem(0xE0001000, 0x001C Bytes, ...) - Data: 01 00 00 00 00 00 00 00 00 00 00 00 00 00 00 00 ... -- CPU_WriteMem(28 bytes @ 0xE0001000)  returns 0x1C (0002ms, 0896ms total)
T1F94 000:915 JLINK_ReadMem (0xE0001000, 0x001C Bytes, ...) -- CPU_ReadMem(28 bytes @ 0xE0001000) - Data: 01 00 00 40 00 00 00 00 00 00 00 00 00 00 00 00 ...  returns 0x00 (0001ms, 0897ms total)
T1F94 000:916 JLINK_ReadReg(R15 (PC))  returns 0x000001C4 (0000ms, 0897ms total)
T1F94 000:916 JLINK_ReadReg(XPSR)  returns 0x61000000 (0000ms, 0897ms total)
T1F94 000:976 JLINK_SetResetType(JLINKARM_RESET_TYPE_NORMAL)  returns JLINKARM_RESET_TYPE_NORMAL (0000ms, 0897ms total)
T1F94 000:976 JLINK_Reset() -- CPU_WriteMem(4 bytes @ 0xE000EDF0) -- CPU_WriteMem(4 bytes @ 0xE000EDFC) >0x35 TIF> -- CPU_WriteMem(4 bytes @ 0xE000ED0C) -- CPU_ReadMem(4 bytes @ 0xE000EDF0) -- CPU_ReadMem(4 bytes @ 0xE000EDF0) -- CPU_WriteMem(4 bytes @ 0xE000EDF0) -- CPU_WriteMem(4 bytes @ 0xE000EDFC) -- CPU is running -- CPU_ReadMem(4 bytes @ 0xE000EDF0) -- CPU_WriteMem(4 bytes @ 0xE000EDFC) -- CPU_WriteMem(4 bytes @ 0xE000EDFC) -- CPU_WriteMem(4 bytes @ 0xE000EDFC) -- CPU_WriteMem(4 bytes @ 0xE000EDFC)
 -- CPU_WriteMem(4 bytes @ 0xE000EDFC) -- CPU_WriteMem(4 bytes @ 0xE0001050) -- CPU_WriteMem(4 bytes @ 0xE0001054) -- CPU_WriteMem(4 bytes @ 0xE0001058) -- CPU_ReadMem(4 bytes @ 0xE0001000) -- CPU_WriteMem(4 bytes @ 0xE000EDFC) -- CPU_WriteMem(4 bytes @ 0xE0001058) -- CPU_ReadMem(4 bytes @ 0x00000004) -- CPU_ReadMem(4 bytes @ 0xE0002000) -- CPU_ReadMem(4 bytes @ 0xE0002008) -- CPU_ReadMem(4 bytes @ 0xE000200C) -- CPU_ReadMem(4 bytes @ 0xE0002010) -- CPU_ReadMem(4 bytes @ 0xE0002014)
 -- CPU_ReadMem(4 bytes @ 0xE0002018) -- CPU_ReadMem(4 bytes @ 0xE000201C) -- CPU_WriteMem(4 bytes @ 0xE0002000) -- CPU_WriteMem(4 bytes @ 0xE0002008) -- CPU_WriteMem(4 bytes @ 0xE000200C) -- CPU_WriteMem(4 bytes @ 0xE0002010) -- CPU_WriteMem(4 bytes @ 0xE0002014) -- CPU_WriteMem(4 bytes @ 0xE0002018) -- CPU_WriteMem(4 bytes @ 0xE000201C) -- CPU_ReadMem(4 bytes @ 0xE0001000) -- CPU_WriteMem(4 bytes @ 0xE0002000) -- CPU_WriteMem(4 bytes @ 0xE0002008) -- CPU_WriteMem(4 bytes @ 0xE000200C)
 -- CPU_WriteMem(4 bytes @ 0xE0002010) -- CPU_WriteMem(4 bytes @ 0xE0002014) -- CPU_WriteMem(4 bytes @ 0xE0002018) -- CPU_WriteMem(4 bytes @ 0xE000201C) -- CPU_WriteMem(4 bytes @ 0xE0002000) -- CPU_ReadMem(4 bytes @ 0xE000EDFC) -- CPU_ReadMem(4 bytes @ 0xE0001000) (0273ms, 1170ms total)
T1F94 001:249 JLINK_ReadReg(R15 (PC))  returns 0x000001C4 (0000ms, 1170ms total)
T1F94 001:249 JLINK_ReadReg(XPSR)  returns 0x61000000 (0000ms, 1170ms total)
T1F94 001:249 JLINK_ReadMem (0x00000128, 0x003C Bytes, ...) -- CPU_ReadMem(128 bytes @ 0x00000100) -- Updating C cache (128 bytes @ 0x00000100) -- Read from C cache (60 bytes @ 0x00000128) - Data: 00 F0 02 F8 00 F0 3A F8 0A A0 90 E8 00 0C 82 44 ...  returns 0x00 (0003ms, 1173ms total)
T1F94 001:252 JLINK_ReadMem (0x00000164, 0x003C Bytes, ...) -- CPU_ReadMem(64 bytes @ 0x00000180) -- Updating C cache (64 bytes @ 0x00000180) -- Read from C cache (60 bytes @ 0x00000164) - Data: 10 3A 24 BF 78 C8 78 C1 FA D8 52 07 24 BF 30 C8 ...  returns 0x00 (0002ms, 1175ms total)
T1F94 001:254 JLINK_ReadMem (0x000001A0, 0x003C Bytes, ...) -- CPU_ReadMem(64 bytes @ 0x000001C0) -- Updating C cache (64 bytes @ 0x000001C0) -- Read from C cache (60 bytes @ 0x000001A0) - Data: 10 B5 10 BD 00 F0 2F F8 11 46 FF F7 F7 FF 00 F0 ...  returns 0x00 (0002ms, 1177ms total)
T1F94 001:337 JLINK_ReadMem (0x40014000, 0x002C Bytes, ...) -- CPU_ReadMem(44 bytes @ 0x40014000) - Data: 00 00 00 00 00 00 00 00 00 00 00 00 00 00 00 00 ...  returns 0x00 (0002ms, 1179ms total)
T1F94 001:339 JLINK_ReadMem (0x4001402C, 0x0004 Bytes, ...) -- CPU_ReadMem(4 bytes @ 0x4001402C) - Data: 00 00 00 00  returns 0x00 (0001ms, 1180ms total)
T1F94 001:340 JLINK_ReadMem (0x4001403C, 0x0004 Bytes, ...) -- CPU_ReadMem(4 bytes @ 0x4001403C) - Data: 00 00 00 00  returns 0x00 (0001ms, 1181ms total)
T1F94 001:341 JLINK_ReadMem (0x40014070, 0x0004 Bytes, ...) -- CPU_ReadMem(4 bytes @ 0x40014070) - Data: 00 00 00 00  returns 0x00 (0001ms, 1182ms total)
T1F94 001:342 JLINK_ReadMem (0x40014074, 0x0004 Bytes, ...) -- CPU_ReadMem(4 bytes @ 0x40014074) - Data: 00 00 00 00  returns 0x00 (0001ms, 1183ms total)
T1F94 001:371 JLINK_ReadMem (0x50013FFC, 0x0004 Bytes, ...) -- CPU_ReadMem(4 bytes @ 0x50013FFC) - Data: F7 0F 00 00  returns 0x00 (0001ms, 1184ms total)
T1F94 001:372 JLINK_ReadMem (0x50018000, 0x0018 Bytes, ...) -- CPU_ReadMem(24 bytes @ 0x50018000) - Data: 00 00 00 00 00 00 00 00 00 00 00 00 00 00 00 00 ...  returns 0x00 (0001ms, 1185ms total)
T1F94 001:373 JLINK_ReadMem (0x50018018, 0x0004 Bytes, ...) -- CPU_ReadMem(4 bytes @ 0x50018018) - Data: 00 00 00 00  returns 0x00 (0001ms, 1186ms total)
T1F94 001:402 JLINK_ReadMem (0x50033FFC, 0x0004 Bytes, ...) -- CPU_ReadMem(4 bytes @ 0x50033FFC) - Data: 3F 00 00 00  returns 0x00 (0002ms, 1188ms total)
T1F94 001:404 JLINK_ReadMem (0x50038000, 0x0018 Bytes, ...) -- CPU_ReadMem(24 bytes @ 0x50038000) - Data: 00 00 00 00 00 00 00 00 00 00 00 00 00 00 00 00 ...  returns 0x00 (0001ms, 1189ms total)
T1F94 001:405 JLINK_ReadMem (0x50038018, 0x0004 Bytes, ...) -- CPU_ReadMem(4 bytes @ 0x50038018) - Data: 00 00 00 00  returns 0x00 (0001ms, 1190ms total)
T1F94 001:435 JLINK_ReadMem (0x40048000, 0x0014 Bytes, ...) -- CPU_ReadMem(20 bytes @ 0x40048000) - Data: 02 00 00 00 00 00 00 00 00 00 00 00 00 00 00 00 ...  returns 0x00 (0002ms, 1192ms total)
T1F94 001:437 JLINK_ReadMem (0x40048014, 0x0004 Bytes, ...) -- CPU_ReadMem(4 bytes @ 0x40048014) - Data: 00 00 00 00  returns 0x00 (0001ms, 1193ms total)
T1F94 001:438 JLINK_ReadMem (0x40048020, 0x0008 Bytes, ...) -- CPU_ReadMem(8 bytes @ 0x40048020) - Data: 00 00 00 00 00 00 00 00  returns 0x00 (0001ms, 1194ms total)
T1F94 001:439 JLINK_ReadMem (0x40048028, 0x0004 Bytes, ...) -- CPU_ReadMem(4 bytes @ 0x40048028) - Data: E8 00 00 00  returns 0x00 (0001ms, 1195ms total)
T1F94 001:440 JLINK_ReadMem (0x40048030, 0x0004 Bytes, ...) -- CPU_ReadMem(4 bytes @ 0x40048030) - Data: 11 00 00 00  returns 0x00 (0001ms, 1196ms total)
T1F94 001:441 JLINK_ReadMem (0x40048040, 0x000C Bytes, ...) -- CPU_ReadMem(12 bytes @ 0x40048040) - Data: 00 00 00 00 00 00 00 00 00 00 00 00  returns 0x00 (0001ms, 1197ms total)
T1F94 001:442 JLINK_ReadMem (0x4004804C, 0x0004 Bytes, ...) -- CPU_ReadMem(4 bytes @ 0x4004804C) - Data: 00 00 00 00  returns 0x00 (0001ms, 1198ms total)
T1F94 001:443 JLINK_ReadMem (0x40048070, 0x0008 Bytes, ...) -- CPU_ReadMem(8 bytes @ 0x40048070) - Data: 00 00 00 00 00 00 00 00  returns 0x00 (0001ms, 1199ms total)
T1F94 001:444 JLINK_ReadMem (0x40048078, 0x0004 Bytes, ...) -- CPU_ReadMem(4 bytes @ 0x40048078) - Data: 01 00 00 00  returns 0x00 (0001ms, 1200ms total)
T1F94 001:445 JLINK_ReadMem (0x40048080, 0x0004 Bytes, ...) -- CPU_ReadMem(4 bytes @ 0x40048080) - Data: 5F 48 00 00  returns 0x00 (0001ms, 1201ms total)
T1F94 001:446 JLINK_ReadMem (0x40048094, 0x0008 Bytes, ...) -- CPU_ReadMem(8 bytes @ 0x40048094) - Data: 01 00 00 00 00 00 00 00  returns 0x00 (0001ms, 1202ms total)
T1F94 001:447 JLINK_ReadMem (0x4004809C, 0x0004 Bytes, ...) -- CPU_ReadMem(4 bytes @ 0x4004809C) - Data: 00 00 00 00  returns 0x00 (0001ms, 1203ms total)
T1F94 001:448 JLINK_ReadMem (0x400480AC, 0x0004 Bytes, ...) -- CPU_ReadMem(4 bytes @ 0x400480AC) - Data: 00 00 00 00  returns 0x00 (0001ms, 1204ms total)
T1F94 001:449 JLINK_ReadMem (0x400480B0, 0x0004 Bytes, ...) -- CPU_ReadMem(4 bytes @ 0x400480B0) - Data: 00 00 00 00  returns 0x00 (0001ms, 1205ms total)
T1F94 001:450 JLINK_ReadMem (0x400480C0, 0x0008 Bytes, ...) -- CPU_ReadMem(8 bytes @ 0x400480C0) - Data: 00 00 00 00 00 00 00 00  returns 0x00 (0001ms, 1206ms total)
T1F94 001:451 JLINK_ReadMem (0x400480C8, 0x0004 Bytes, ...) -- CPU_ReadMem(4 bytes @ 0x400480C8) - Data: 01 00 00 00  returns 0x00 (0001ms, 1207ms total)
T1F94 001:452 JLINK_ReadMem (0x400480D0, 0x0008 Bytes, ...) -- CPU_ReadMem(8 bytes @ 0x400480D0) - Data: 00 00 00 00 00 00 00 00  returns 0x00 (0001ms, 1208ms total)
T1F94 001:453 JLINK_ReadMem (0x400480D8, 0x0004 Bytes, ...) -- CPU_ReadMem(4 bytes @ 0x400480D8) - Data: 00 00 00 00  returns 0x00 (0001ms, 1209ms total)
T1F94 001:454 JLINK_ReadMem (0x400480E0, 0x0008 Bytes, ...) -- CPU_ReadMem(8 bytes @ 0x400480E0) - Data: 00 00 00 00 00 00 00 00  returns 0x00 (0001ms, 1210ms total)
T1F94 001:455 JLINK_ReadMem (0x400480E8, 0x0004 Bytes, ...) -- CPU_ReadMem(4 bytes @ 0x400480E8) - Data: 00 00 00 00  returns 0x00 (0001ms, 1211ms total)
T1F94 001:456 JLINK_ReadMem (0x40048100, 0x0004 Bytes, ...) -- CPU_ReadMem(4 bytes @ 0x40048100) - Data: FF FB FF FF  returns 0x00 (0001ms, 1212ms total)
T1F94 001:457 JLINK_ReadMem (0x40048104, 0x0004 Bytes, ...) -- CPU_ReadMem(4 bytes @ 0x40048104) - Data: FF 03 00 00  returns 0x00 (0001ms, 1213ms total)
T1F94 001:458 JLINK_ReadMem (0x40048150, 0x0004 Bytes, ...) -- CPU_ReadMem(4 bytes @ 0x40048150) - Data: 00 00 00 00  returns 0x00 (0001ms, 1214ms total)
T1F94 001:459 JLINK_ReadMem (0x40048154, 0x0004 Bytes, ...) -- CPU_ReadMem(4 bytes @ 0x40048154) - Data: 04 00 00 00  returns 0x00 (0001ms, 1215ms total)
T1F94 001:460 JLINK_ReadMem (0x40048200, 0x0004 Bytes, ...) -- CPU_ReadMem(4 bytes @ 0x40048200) - Data: 00 00 00 00  returns 0x00 (0001ms, 1216ms total)
T1F94 001:461 JLINK_ReadMem (0x40048204, 0x0004 Bytes, ...) -- CPU_ReadMem(4 bytes @ 0x40048204) - Data: 00 00 00 00  returns 0x00 (0001ms, 1217ms total)
T1F94 001:462 JLINK_ReadMem (0x4004820C, 0x0008 Bytes, ...) -- CPU_ReadMem(8 bytes @ 0x4004820C) - Data: 00 00 00 00 00 00 00 00  returns 0x00 (0001ms, 1218ms total)
T1F94 001:463 JLINK_ReadMem (0x40048214, 0x0004 Bytes, ...) -- CPU_ReadMem(4 bytes @ 0x40048214) - Data: 00 00 00 00  returns 0x00 (0001ms, 1219ms total)
T1F94 001:464 JLINK_ReadMem (0x4004821C, 0x0004 Bytes, ...) -- CPU_ReadMem(4 bytes @ 0x4004821C) - Data: 00 00 00 00  returns 0x00 (0001ms, 1220ms total)
T1F94 001:465 JLINK_ReadMem (0x40048230, 0x0008 Bytes, ...) -- CPU_ReadMem(8 bytes @ 0x40048230) - Data: 00 00 00 00 F0 FD 00 00  returns 0x00 (0001ms, 1221ms total)
T1F94 001:466 JLINK_ReadMem (0x40048238, 0x0004 Bytes, ...) -- CPU_ReadMem(4 bytes @ 0x40048238) - Data: F0 FD 00 00  returns 0x00 (0001ms, 1222ms total)
T1F94 001:467 JLINK_ReadMem (0x400483F4, 0x0004 Bytes, ...) -- CPU_ReadMem(4 bytes @ 0x400483F4) - Data: 2B 00 00 3D  returns 0x00 (0001ms, 1223ms total)
T1F94 002:771 JLINK_ReadMem (0x10000030, 0x0004 Bytes, ...) -- CPU_ReadMem(64 bytes @ 0x10000000) -- Updating C cache (64 bytes @ 0x10000000) -- Read from C cache (4 bytes @ 0x10000030) - Data: F7 D2 00 20  returns 0x00 (0001ms, 1224ms total)
T050C 002:790 JLINK_SetBPEx(Addr = 0x00000ABC, Type = 0xFFFFFFF2)  returns 0x00000001 (0000ms, 1224ms total)
T050C 002:790 JLINK_Go() -- CPU_WriteMem(4 bytes @ 0xE0002000) -- CPU_ReadMem(4 bytes @ 0xE0001000) -- CPU_WriteMem(4 bytes @ 0xE0002008) -- CPU_WriteMem(4 bytes @ 0xE000200C) -- CPU_WriteMem(4 bytes @ 0xE0002010) -- CPU_WriteMem(4 bytes @ 0xE0002014) -- CPU_WriteMem(4 bytes @ 0xE0002018) -- CPU_WriteMem(4 bytes @ 0xE000201C) -- CPU_WriteMem(4 bytes @ 0xE0001004) (0012ms, 1236ms total)
T050C 002:902 JLINK_IsHalted()  returns TRUE (0005ms, 1241ms total)
T050C 002:907 JLINK_Halt()  returns 0x00 (0000ms, 1236ms total)
T050C 002:907 JLINK_IsHalted()  returns TRUE (0000ms, 1236ms total)
T050C 002:907 JLINK_IsHalted()  returns TRUE (0000ms, 1236ms total)
T050C 002:907 JLINK_IsHalted()  returns TRUE (0000ms, 1236ms total)
T050C 002:907 JLINK_ReadReg(R15 (PC))  returns 0x00000ABC (0000ms, 1236ms total)
T050C 002:907 JLINK_ReadReg(XPSR)  returns 0x21000000 (0000ms, 1236ms total)
T050C 002:907 JLINK_ClrBPEx(BPHandle = 0x00000001)  returns 0x00 (0000ms, 1236ms total)
T050C 002:907 JLINK_ReadMemU32(0xE000ED30, 0x0001 Items, ...) -- CPU_ReadMem(4 bytes @ 0xE000ED30) - Data: 03 00 00 00  returns 0x01 (0001ms, 1237ms total)
T050C 002:908 JLINK_ReadMemU32(0xE0001028, 0x0001 Items, ...) -- CPU_ReadMem(4 bytes @ 0xE0001028) - Data: 00 00 00 00  returns 0x01 (0001ms, 1238ms total)
T050C 002:909 JLINK_ReadMemU32(0xE0001038, 0x0001 Items, ...) -- CPU_ReadMem(4 bytes @ 0xE0001038) - Data: 00 02 00 00  returns 0x01 (0001ms, 1239ms total)
T050C 002:910 JLINK_ReadMemU32(0xE0001048, 0x0001 Items, ...) -- CPU_ReadMem(4 bytes @ 0xE0001048) - Data: 00 00 00 00  returns 0x01 (0001ms, 1240ms total)
T050C 002:911 JLINK_ReadMemU32(0xE0001058, 0x0001 Items, ...) -- CPU_ReadMem(4 bytes @ 0xE0001058) - Data: 00 00 00 01  returns 0x01 (0001ms, 1241ms total)
T050C 002:912 JLINK_ReadReg(R0)  returns 0x100000A0 (0000ms, 1241ms total)
T050C 002:912 JLINK_ReadReg(R1)  returns 0x100000A0 (0000ms, 1241ms total)
T050C 002:912 JLINK_ReadReg(R2)  returns 0x100000A0 (0000ms, 1241ms total)
T050C 002:912 JLINK_ReadReg(R3)  returns 0x100000A0 (0000ms, 1241ms total)
T050C 002:912 JLINK_ReadReg(R4)  returns 0x00000000 (0000ms, 1241ms total)
T050C 002:912 JLINK_ReadReg(R5)  returns 0x10000040 (0000ms, 1241ms total)
T050C 002:912 JLINK_ReadReg(R6)  returns 0x00000000 (0000ms, 1241ms total)
T050C 002:912 JLINK_ReadReg(R7)  returns 0x00000000 (0000ms, 1241ms total)
T050C 002:912 JLINK_ReadReg(R8)  returns 0x00000000 (0000ms, 1241ms total)
T050C 002:912 JLINK_ReadReg(R9)  returns 0x00000000 (0000ms, 1241ms total)
T050C 002:912 JLINK_ReadReg(R10)  returns 0x00001630 (0000ms, 1241ms total)
T050C 002:912 JLINK_ReadReg(R11)  returns 0x00000000 (0000ms, 1241ms total)
T050C 002:912 JLINK_ReadReg(R12)  returns 0x10000080 (0000ms, 1241ms total)
T050C 002:912 JLINK_ReadReg(R13 (SP))  returns 0x100002A0 (0000ms, 1241ms total)
T050C 002:912 JLINK_ReadReg(R14)  returns 0x000001B3 (0000ms, 1241ms total)
T050C 002:912 JLINK_ReadReg(R15 (PC))  returns 0x00000ABC (0000ms, 1241ms total)
T050C 002:912 JLINK_ReadReg(XPSR)  returns 0x21000000 (0000ms, 1241ms total)
T050C 002:912 JLINK_ReadReg(MSP)  returns 0x100002A0 (0000ms, 1241ms total)
T050C 002:912 JLINK_ReadReg(PSP)  returns 0x00000000 (0000ms, 1241ms total)
T050C 002:912 JLINK_ReadReg(CFBP)  returns 0x00000000 (0000ms, 1241ms total)
T1F94 002:913 JLINK_ReadMemU32(0xE0001004, 0x0001 Items, ...) -- CPU_ReadMem(4 bytes @ 0xE0001004) - Data: F3 1A 00 00  returns 0x01 (0002ms, 1243ms total)
T1F94 002:915 JLINK_ReadMem (0x10000030, 0x0004 Bytes, ...) -- CPU_ReadMem(64 bytes @ 0x10000000) -- Updating C cache (64 bytes @ 0x10000000) -- Read from C cache (4 bytes @ 0x10000030) - Data: 00 A2 4A 04  returns 0x00 (0002ms, 1245ms total)
T1F94 002:917 JLINK_ReadMem (0x40048000, 0x0014 Bytes, ...) -- CPU_ReadMem(20 bytes @ 0x40048000) - Data: 02 00 00 00 00 00 00 00 25 00 00 00 01 00 00 00 ...  returns 0x00 (0002ms, 1247ms total)
T1F94 002:919 JLINK_ReadMem (0x40048014, 0x0004 Bytes, ...) -- CPU_ReadMem(4 bytes @ 0x40048014) - Data: 01 00 00 00  returns 0x00 (0001ms, 1248ms total)
T1F94 002:920 JLINK_ReadMem (0x40048020, 0x0008 Bytes, ...) -- CPU_ReadMem(8 bytes @ 0x40048020) - Data: 00 00 00 00 00 00 00 00  returns 0x00 (0001ms, 1249ms total)
T1F94 002:921 JLINK_ReadMem (0x40048028, 0x0004 Bytes, ...) -- CPU_ReadMem(4 bytes @ 0x40048028) - Data: E8 00 00 00  returns 0x00 (0001ms, 1250ms total)
T1F94 002:922 JLINK_ReadMem (0x40048030, 0x0004 Bytes, ...) -- CPU_ReadMem(4 bytes @ 0x40048030) - Data: 11 00 00 00  returns 0x00 (0001ms, 1251ms total)
T1F94 002:923 JLINK_ReadMem (0x40048040, 0x000C Bytes, ...) -- CPU_ReadMem(12 bytes @ 0x40048040) - Data: 01 00 00 00 01 00 00 00 01 00 00 00  returns 0x00 (0001ms, 1252ms total)
T1F94 002:924 JLINK_ReadMem (0x4004804C, 0x0004 Bytes, ...) -- CPU_ReadMem(4 bytes @ 0x4004804C) - Data: 01 00 00 00  returns 0x00 (0001ms, 1253ms total)
T1F94 002:925 JLINK_ReadMem (0x40048070, 0x0008 Bytes, ...) -- CPU_ReadMem(8 bytes @ 0x40048070) - Data: 03 00 00 00 01 00 00 00  returns 0x00 (0001ms, 1254ms total)
T1F94 002:926 JLINK_ReadMem (0x40048078, 0x0004 Bytes, ...) -- CPU_ReadMem(4 bytes @ 0x40048078) - Data: 01 00 00 00  returns 0x00 (0001ms, 1255ms total)
T1F94 002:927 JLINK_ReadMem (0x40048080, 0x0004 Bytes, ...) -- CPU_ReadMem(4 bytes @ 0x40048080) - Data: 5F 48 00 00  returns 0x00 (0001ms, 1256ms total)
T1F94 002:928 JLINK_ReadMem (0x40048094, 0x0008 Bytes, ...) -- CPU_ReadMem(8 bytes @ 0x40048094) - Data: 01 00 00 00 00 00 00 00  returns 0x00 (0001ms, 1257ms total)
T1F94 002:929 JLINK_ReadMem (0x4004809C, 0x0004 Bytes, ...) -- CPU_ReadMem(4 bytes @ 0x4004809C) - Data: 00 00 00 00  returns 0x00 (0001ms, 1258ms total)
T1F94 002:930 JLINK_ReadMem (0x400480AC, 0x0004 Bytes, ...) -- CPU_ReadMem(4 bytes @ 0x400480AC) - Data: 00 00 00 00  returns 0x00 (0001ms, 1259ms total)
T1F94 002:931 JLINK_ReadMem (0x400480B0, 0x0004 Bytes, ...) -- CPU_ReadMem(4 bytes @ 0x400480B0) - Data: 01 00 00 00  returns 0x00 (0001ms, 1260ms total)
T1F94 002:932 JLINK_ReadMem (0x400480C0, 0x0008 Bytes, ...) -- CPU_ReadMem(8 bytes @ 0x400480C0) - Data: 00 00 00 00 00 00 00 00  returns 0x00 (0001ms, 1261ms total)
T1F94 002:933 JLINK_ReadMem (0x400480C8, 0x0004 Bytes, ...) -- CPU_ReadMem(4 bytes @ 0x400480C8) - Data: 01 00 00 00  returns 0x00 (0001ms, 1262ms total)
T1F94 002:934 JLINK_ReadMem (0x400480D0, 0x0008 Bytes, ...) -- CPU_ReadMem(8 bytes @ 0x400480D0) - Data: 00 00 00 00 00 00 00 00  returns 0x00 (0001ms, 1263ms total)
T1F94 002:935 JLINK_ReadMem (0x400480D8, 0x0004 Bytes, ...) -- CPU_ReadMem(4 bytes @ 0x400480D8) - Data: 00 00 00 00  returns 0x00 (0001ms, 1264ms total)
T1F94 002:936 JLINK_ReadMem (0x400480E0, 0x0008 Bytes, ...) -- CPU_ReadMem(8 bytes @ 0x400480E0) - Data: 00 00 00 00 00 00 00 00  returns 0x00 (0001ms, 1265ms total)
T1F94 002:937 JLINK_ReadMem (0x400480E8, 0x0004 Bytes, ...) -- CPU_ReadMem(4 bytes @ 0x400480E8) - Data: 00 00 00 00  returns 0x00 (0001ms, 1266ms total)
T1F94 002:938 JLINK_ReadMem (0x40048100, 0x0004 Bytes, ...) -- CPU_ReadMem(4 bytes @ 0x40048100) - Data: FF FB FF FF  returns 0x00 (0001ms, 1267ms total)
T1F94 002:939 JLINK_ReadMem (0x40048104, 0x0004 Bytes, ...) -- CPU_ReadMem(4 bytes @ 0x40048104) - Data: FF 03 00 00  returns 0x00 (0001ms, 1268ms total)
T1F94 002:940 JLINK_ReadMem (0x40048150, 0x0004 Bytes, ...) -- CPU_ReadMem(4 bytes @ 0x40048150) - Data: 00 00 00 00  returns 0x00 (0001ms, 1269ms total)
T1F94 002:941 JLINK_ReadMem (0x40048154, 0x0004 Bytes, ...) -- CPU_ReadMem(4 bytes @ 0x40048154) - Data: 04 00 00 00  returns 0x00 (0001ms, 1270ms total)
T1F94 002:942 JLINK_ReadMem (0x40048200, 0x0004 Bytes, ...) -- CPU_ReadMem(4 bytes @ 0x40048200) - Data: 00 00 00 00  returns 0x00 (0001ms, 1271ms total)
T1F94 002:943 JLINK_ReadMem (0x40048204, 0x0004 Bytes, ...) -- CPU_ReadMem(4 bytes @ 0x40048204) - Data: 00 00 00 00  returns 0x00 (0001ms, 1272ms total)
T1F94 002:944 JLINK_ReadMem (0x4004820C, 0x0008 Bytes, ...) -- CPU_ReadMem(8 bytes @ 0x4004820C) - Data: 00 00 00 00 00 00 00 00  returns 0x00 (0001ms, 1273ms total)
T1F94 002:945 JLINK_ReadMem (0x40048214, 0x0004 Bytes, ...) -- CPU_ReadMem(4 bytes @ 0x40048214) - Data: 00 00 00 00  returns 0x00 (0001ms, 1274ms total)
T1F94 002:946 JLINK_ReadMem (0x4004821C, 0x0004 Bytes, ...) -- CPU_ReadMem(4 bytes @ 0x4004821C) - Data: 00 00 00 00  returns 0x00 (0001ms, 1275ms total)
T1F94 002:947 JLINK_ReadMem (0x40048230, 0x0008 Bytes, ...) -- CPU_ReadMem(8 bytes @ 0x40048230) - Data: 00 00 00 00 F0 FD 00 00  returns 0x00 (0001ms, 1276ms total)
T1F94 002:948 JLINK_ReadMem (0x40048238, 0x0004 Bytes, ...) -- CPU_ReadMem(4 bytes @ 0x40048238) - Data: 50 F8 00 00  returns 0x00 (0001ms, 1277ms total)
T1F94 002:949 JLINK_ReadMem (0x400483F4, 0x0004 Bytes, ...) -- CPU_ReadMem(4 bytes @ 0x400483F4) - Data: 2B 00 00 3D  returns 0x00 (0001ms, 1278ms total)
T1F94 002:990 JLINK_ReadMem (0x40014000, 0x002C Bytes, ...) -- CPU_ReadMem(44 bytes @ 0x40014000) - Data: 00 00 00 00 00 00 00 00 00 00 00 00 00 00 00 00 ...  returns 0x00 (0001ms, 1279ms total)
T1F94 002:991 JLINK_ReadMem (0x4001402C, 0x0004 Bytes, ...) -- CPU_ReadMem(4 bytes @ 0x4001402C) - Data: 00 00 00 00  returns 0x00 (0001ms, 1280ms total)
T1F94 002:992 JLINK_ReadMem (0x4001403C, 0x0004 Bytes, ...) -- CPU_ReadMem(4 bytes @ 0x4001403C) - Data: 00 00 00 00  returns 0x00 (0001ms, 1281ms total)
T1F94 002:993 JLINK_ReadMem (0x40014070, 0x0004 Bytes, ...) -- CPU_ReadMem(4 bytes @ 0x40014070) - Data: 00 00 00 00  returns 0x00 (0001ms, 1282ms total)
T1F94 002:994 JLINK_ReadMem (0x40014074, 0x0004 Bytes, ...) -- CPU_ReadMem(4 bytes @ 0x40014074) - Data: 00 00 00 00  returns 0x00 (0001ms, 1283ms total)
T1F94 002:995 JLINK_ReadMem (0x50033FFC, 0x0004 Bytes, ...) -- CPU_ReadMem(4 bytes @ 0x50033FFC) - Data: 3F 00 00 00  returns 0x00 (0001ms, 1284ms total)
T1F94 002:996 JLINK_ReadMem (0x50038000, 0x0018 Bytes, ...) -- CPU_ReadMem(24 bytes @ 0x50038000) - Data: 00 00 00 00 00 00 00 00 00 00 00 00 00 00 00 00 ...  returns 0x00 (0001ms, 1285ms total)
T1F94 002:997 JLINK_ReadMem (0x50038018, 0x0004 Bytes, ...) -- CPU_ReadMem(4 bytes @ 0x50038018) - Data: 00 00 00 00  returns 0x00 (0001ms, 1286ms total)
T1F94 002:998 JLINK_ReadMem (0x50013FFC, 0x0004 Bytes, ...) -- CPU_ReadMem(4 bytes @ 0x50013FFC) - Data: F7 0F 00 00  returns 0x00 (0001ms, 1287ms total)
T1F94 002:999 JLINK_ReadMem (0x50018000, 0x0018 Bytes, ...) -- CPU_ReadMem(24 bytes @ 0x50018000) - Data: 00 00 00 00 00 00 00 00 00 00 00 00 00 00 00 00 ...  returns 0x00 (0001ms, 1288ms total)
T1F94 003:000 JLINK_ReadMem (0x50018018, 0x0004 Bytes, ...) -- CPU_ReadMem(4 bytes @ 0x50018018) - Data: 00 00 00 00  returns 0x00 (0001ms, 1289ms total)
T1F94 003:002 JLINK_ReadMem (0x000009BC, 0x003C Bytes, ...) -- CPU_ReadMem(128 bytes @ 0x00000980) -- Updating C cache (128 bytes @ 0x00000980) -- Read from C cache (60 bytes @ 0x000009BC) - Data: 01 22 05 21 10 46 FF F7 6F FC 01 22 06 21 10 46 ...  returns 0x00 (0003ms, 1292ms total)
T1F94 003:005 JLINK_ReadMem (0x000009F8, 0x003C Bytes, ...) -- CPU_ReadMem(64 bytes @ 0x00000A00) -- Updating C cache (64 bytes @ 0x00000A00) -- Read from C cache (60 bytes @ 0x000009F8) - Data: 10 BD 10 B5 00 22 09 21 02 20 FF F7 4F FC 00 22 ...  returns 0x00 (0002ms, 1294ms total)
T1F94 003:007 JLINK_ReadMem (0x00000A34, 0x003C Bytes, ...) -- CPU_ReadMem(64 bytes @ 0x00000A40) -- Updating C cache (64 bytes @ 0x00000A40) -- Read from C cache (60 bytes @ 0x00000A34) - Data: 04 21 00 20 FF F7 34 FC 01 22 03 21 00 20 FF F7 ...  returns 0x00 (0002ms, 1296ms total)
T1F94 003:009 JLINK_ReadMem (0x00000A70, 0x003C Bytes, ...) -- CPU_ReadMem(64 bytes @ 0x00000A80) -- Updating C cache (64 bytes @ 0x00000A80) -- Read from C cache (60 bytes @ 0x00000A70) - Data: 19 FC 01 22 11 46 03 20 FF F7 14 FC 01 22 02 21 ...  returns 0x00 (0002ms, 1298ms total)
T1F94 003:011 JLINK_ReadMem (0x00000AAC, 0x003C Bytes, ...) -- CPU_ReadMem(64 bytes @ 0x00000AC0) -- Updating C cache (64 bytes @ 0x00000AC0) -- Read from C cache (60 bytes @ 0x00000AAC) - Data: FB FB 01 22 07 21 02 20 FF F7 F6 FB 10 BD 00 00 ...  returns 0x00 (0002ms, 1300ms total)
T050C 003:670 JLINK_Go() -- CPU_ReadMem(4 bytes @ 0xE0001000) -- CPU_WriteMem(4 bytes @ 0xE0002008) (0004ms, 1304ms total)
T050C 003:774 JLINK_IsHalted()  returns FALSE (0001ms, 1305ms total)
T050C 003:875 JLINK_IsHalted()  returns FALSE (0001ms, 1305ms total)
T050C 003:976 JLINK_IsHalted()  returns FALSE (0001ms, 1305ms total)
T050C 004:077 JLINK_IsHalted()  returns FALSE (0001ms, 1305ms total)
T050C 004:178 JLINK_ReadMemU32(0xE0001004, 0x0001 Items, ...) -- CPU is running -- CPU_ReadMem(4 bytes @ 0xE0001004) - Data: 9B 0F 2A 02  returns 0x01 (0001ms, 1305ms total)
T1F94 004:180 JLINK_ReadMem (0x10000030, 0x0004 Bytes, ...) -- CPU is running -- CPU_ReadMem(4 bytes @ 0x10000030) - Data: 00 A2 4A 04  returns 0x00 (0001ms, 1306ms total)
T1F94 004:181 JLINK_ReadMem (0x40048000, 0x0014 Bytes, ...) -- CPU is running -- CPU_ReadMem(20 bytes @ 0x40048000) - Data: 02 00 00 00 00 00 00 00 25 00 00 00 01 00 00 00 ...  returns 0x00 (0002ms, 1308ms total)
T1F94 004:183 JLINK_ReadMem (0x40048014, 0x0004 Bytes, ...) -- CPU is running -- CPU_ReadMem(4 bytes @ 0x40048014) - Data: 01 00 00 00  returns 0x00 (0001ms, 1309ms total)
T1F94 004:184 JLINK_ReadMem (0x40048020, 0x0008 Bytes, ...) -- CPU is running -- CPU_ReadMem(8 bytes @ 0x40048020) - Data: 00 00 00 00 00 00 00 00  returns 0x00 (0001ms, 1310ms total)
T1F94 004:185 JLINK_ReadMem (0x40048028, 0x0004 Bytes, ...) -- CPU is running -- CPU_ReadMem(4 bytes @ 0x40048028) - Data: E8 00 00 00  returns 0x00 (0001ms, 1311ms total)
T1F94 004:186 JLINK_ReadMem (0x40048030, 0x0004 Bytes, ...) -- CPU is running -- CPU_ReadMem(4 bytes @ 0x40048030) - Data: 11 00 00 00  returns 0x00 (0001ms, 1312ms total)
T1F94 004:187 JLINK_ReadMem (0x40048040, 0x000C Bytes, ...) -- CPU is running -- CPU_ReadMem(12 bytes @ 0x40048040) - Data: 01 00 00 00 01 00 00 00 01 00 00 00  returns 0x00 (0001ms, 1313ms total)
T1F94 004:188 JLINK_ReadMem (0x4004804C, 0x0004 Bytes, ...) -- CPU is running -- CPU_ReadMem(4 bytes @ 0x4004804C) - Data: 01 00 00 00  returns 0x00 (0001ms, 1314ms total)
T1F94 004:189 JLINK_ReadMem (0x40048070, 0x0008 Bytes, ...) -- CPU is running -- CPU_ReadMem(8 bytes @ 0x40048070) - Data: 03 00 00 00 01 00 00 00  returns 0x00 (0001ms, 1315ms total)
T1F94 004:190 JLINK_ReadMem (0x40048078, 0x0004 Bytes, ...) -- CPU is running -- CPU_ReadMem(4 bytes @ 0x40048078) - Data: 01 00 00 00  returns 0x00 (0001ms, 1316ms total)
T1F94 004:191 JLINK_ReadMem (0x40048080, 0x0004 Bytes, ...) -- CPU is running -- CPU_ReadMem(4 bytes @ 0x40048080) - Data: 5F 48 01 00  returns 0x00 (0001ms, 1317ms total)
T1F94 004:192 JLINK_ReadMem (0x40048094, 0x0008 Bytes, ...) -- CPU is running -- CPU_ReadMem(8 bytes @ 0x40048094) - Data: 01 00 00 00 00 00 00 00  returns 0x00 (0001ms, 1318ms total)
T1F94 004:193 JLINK_ReadMem (0x4004809C, 0x0004 Bytes, ...) -- CPU is running -- CPU_ReadMem(4 bytes @ 0x4004809C) - Data: 00 00 00 00  returns 0x00 (0001ms, 1319ms total)
T1F94 004:194 JLINK_ReadMem (0x400480AC, 0x0004 Bytes, ...) -- CPU is running -- CPU_ReadMem(4 bytes @ 0x400480AC) - Data: 00 00 00 00  returns 0x00 (0001ms, 1320ms total)
T1F94 004:195 JLINK_ReadMem (0x400480B0, 0x0004 Bytes, ...) -- CPU is running -- CPU_ReadMem(4 bytes @ 0x400480B0) - Data: 01 00 00 00  returns 0x00 (0001ms, 1321ms total)
T1F94 004:196 JLINK_ReadMem (0x400480C0, 0x0008 Bytes, ...) -- CPU is running -- CPU_ReadMem(8 bytes @ 0x400480C0) - Data: 00 00 00 00 00 00 00 00  returns 0x00 (0001ms, 1322ms total)
T1F94 004:197 JLINK_ReadMem (0x400480C8, 0x0004 Bytes, ...) -- CPU is running -- CPU_ReadMem(4 bytes @ 0x400480C8) - Data: 01 00 00 00  returns 0x00 (0001ms, 1323ms total)
T1F94 004:198 JLINK_ReadMem (0x400480D0, 0x0008 Bytes, ...) -- CPU is running -- CPU_ReadMem(8 bytes @ 0x400480D0) - Data: 00 00 00 00 00 00 00 00  returns 0x00 (0001ms, 1324ms total)
T1F94 004:199 JLINK_ReadMem (0x400480D8, 0x0004 Bytes, ...) -- CPU is running -- CPU_ReadMem(4 bytes @ 0x400480D8) - Data: 00 00 00 00  returns 0x00 (0001ms, 1325ms total)
T1F94 004:200 JLINK_ReadMem (0x400480E0, 0x0008 Bytes, ...) -- CPU is running -- CPU_ReadMem(8 bytes @ 0x400480E0) - Data: 00 00 00 00 00 00 00 00  returns 0x00 (0001ms, 1326ms total)
T1F94 004:201 JLINK_ReadMem (0x400480E8, 0x0004 Bytes, ...) -- CPU is running -- CPU_ReadMem(4 bytes @ 0x400480E8) - Data: 00 00 00 00  returns 0x00 (0001ms, 1327ms total)
T1F94 004:202 JLINK_ReadMem (0x40048100, 0x0004 Bytes, ...) -- CPU is running -- CPU_ReadMem(4 bytes @ 0x40048100) - Data: FF FB FF FF  returns 0x00 (0001ms, 1328ms total)
T1F94 004:203 JLINK_ReadMem (0x40048104, 0x0004 Bytes, ...) -- CPU is running -- CPU_ReadMem(4 bytes @ 0x40048104) - Data: FF 03 00 00  returns 0x00 (0001ms, 1329ms total)
T1F94 004:204 JLINK_ReadMem (0x40048150, 0x0004 Bytes, ...) -- CPU is running -- CPU_ReadMem(4 bytes @ 0x40048150) - Data: 00 00 00 00  returns 0x00 (0001ms, 1330ms total)
T1F94 004:205 JLINK_ReadMem (0x40048154, 0x0004 Bytes, ...) -- CPU is running -- CPU_ReadMem(4 bytes @ 0x40048154) - Data: 04 00 00 00  returns 0x00 (0001ms, 1331ms total)
T1F94 004:206 JLINK_ReadMem (0x40048200, 0x0004 Bytes, ...) -- CPU is running -- CPU_ReadMem(4 bytes @ 0x40048200) - Data: 00 00 00 00  returns 0x00 (0001ms, 1332ms total)
T1F94 004:207 JLINK_ReadMem (0x40048204, 0x0004 Bytes, ...) -- CPU is running -- CPU_ReadMem(4 bytes @ 0x40048204) - Data: 00 00 00 00  returns 0x00 (0001ms, 1333ms total)
T1F94 004:208 JLINK_ReadMem (0x4004820C, 0x0008 Bytes, ...) -- CPU is running -- CPU_ReadMem(8 bytes @ 0x4004820C) - Data: 00 00 00 00 00 00 00 00  returns 0x00 (0001ms, 1334ms total)
T1F94 004:209 JLINK_ReadMem (0x40048214, 0x0004 Bytes, ...) -- CPU is running -- CPU_ReadMem(4 bytes @ 0x40048214) - Data: 00 00 00 00  returns 0x00 (0001ms, 1335ms total)
T1F94 004:210 JLINK_ReadMem (0x4004821C, 0x0004 Bytes, ...) -- CPU is running -- CPU_ReadMem(4 bytes @ 0x4004821C) - Data: 00 00 00 00  returns 0x00 (0001ms, 1336ms total)
T1F94 004:211 JLINK_ReadMem (0x40048230, 0x0008 Bytes, ...) -- CPU is running -- CPU_ReadMem(8 bytes @ 0x40048230) - Data: 00 00 00 00 F0 FD 00 00  returns 0x00 (0001ms, 1337ms total)
T1F94 004:212 JLINK_ReadMem (0x40048238, 0x0004 Bytes, ...) -- CPU is running -- CPU_ReadMem(4 bytes @ 0x40048238) - Data: 50 F8 00 00  returns 0x00 (0001ms, 1338ms total)
T1F94 004:213 JLINK_ReadMem (0x400483F4, 0x0004 Bytes, ...) -- CPU is running -- CPU_ReadMem(4 bytes @ 0x400483F4) - Data: 2B 00 00 3D  returns 0x00 (0001ms, 1339ms total)
T1F94 004:218 JLINK_ReadMem (0x40014000, 0x002C Bytes, ...) -- CPU is running -- CPU_ReadMem(44 bytes @ 0x40014000) - Data: 00 00 00 00 00 00 00 00 00 00 00 00 00 00 00 00 ...  returns 0x00 (0001ms, 1340ms total)
T1F94 004:219 JLINK_ReadMem (0x4001402C, 0x0004 Bytes, ...) -- CPU is running -- CPU_ReadMem(4 bytes @ 0x4001402C) - Data: 00 00 00 00  returns 0x00 (0001ms, 1341ms total)
T1F94 004:220 JLINK_ReadMem (0x4001403C, 0x0004 Bytes, ...) -- CPU is running -- CPU_ReadMem(4 bytes @ 0x4001403C) - Data: 00 00 00 00  returns 0x00 (0001ms, 1342ms total)
T1F94 004:221 JLINK_ReadMem (0x40014070, 0x0004 Bytes, ...) -- CPU is running -- CPU_ReadMem(4 bytes @ 0x40014070) - Data: 00 00 00 00  returns 0x00 (0001ms, 1343ms total)
T1F94 004:222 JLINK_ReadMem (0x40014074, 0x0004 Bytes, ...) -- CPU is running -- CPU_ReadMem(4 bytes @ 0x40014074) - Data: 00 00 00 00  returns 0x00 (0001ms, 1344ms total)
T1F94 004:224 JLINK_ReadMem (0x50033FFC, 0x0004 Bytes, ...) -- CPU is running -- CPU_ReadMem(4 bytes @ 0x50033FFC) - Data: 3F 00 00 00  returns 0x00 (0000ms, 1344ms total)
T1F94 004:224 JLINK_ReadMem (0x50038000, 0x0018 Bytes, ...) -- CPU is running -- CPU_ReadMem(24 bytes @ 0x50038000) - Data: 0F 00 00 00 00 00 00 00 00 00 00 00 00 00 00 00 ...  returns 0x00 (0001ms, 1345ms total)
T1F94 004:225 JLINK_ReadMem (0x50038018, 0x0004 Bytes, ...) -- CPU is running -- CPU_ReadMem(4 bytes @ 0x50038018) - Data: 00 00 00 00  returns 0x00 (0001ms, 1346ms total)
T1F94 004:227 JLINK_ReadMem (0x50013FFC, 0x0004 Bytes, ...) -- CPU is running -- CPU_ReadMem(4 bytes @ 0x50013FFC) - Data: D7 0F 00 00  returns 0x00 (0000ms, 1346ms total)
T1F94 004:227 JLINK_ReadMem (0x50018000, 0x0018 Bytes, ...) -- CPU is running -- CPU_ReadMem(24 bytes @ 0x50018000) - Data: E0 07 00 00 00 00 00 00 00 00 00 00 10 00 00 00 ...  returns 0x00 (0001ms, 1347ms total)
T1F94 004:229 JLINK_ReadMem (0x50018018, 0x0004 Bytes, ...) -- CPU is running -- CPU_ReadMem(4 bytes @ 0x50018018) - Data: 00 00 00 00  returns 0x00 (0000ms, 1347ms total)
T050C 004:230 JLINK_IsHalted()  returns FALSE (0001ms, 1348ms total)
T050C 004:331 JLINK_IsHalted()  returns FALSE (0001ms, 1348ms total)
T050C 004:432 JLINK_IsHalted()  returns FALSE (0001ms, 1348ms total)
T050C 004:533 JLINK_IsHalted()  returns FALSE (0001ms, 1348ms total)
T050C 004:634 JLINK_IsHalted()  returns FALSE (0001ms, 1348ms total)
T050C 004:735 JLINK_ReadMemU32(0xE0001004, 0x0001 Items, ...) -- CPU is running -- CPU_ReadMem(4 bytes @ 0xE0001004) - Data: 37 F3 8D 04  returns 0x01 (0001ms, 1348ms total)
T1F94 004:737 JLINK_ReadMem (0x10000030, 0x0004 Bytes, ...) -- CPU is running -- CPU_ReadMem(4 bytes @ 0x10000030) - Data: 00 A2 4A 04  returns 0x00 (0001ms, 1349ms total)
T1F94 004:738 JLINK_ReadMem (0x40048000, 0x0014 Bytes, ...) -- CPU is running -- CPU_ReadMem(20 bytes @ 0x40048000) - Data: 02 00 00 00 00 00 00 00 25 00 00 00 01 00 00 00 ...  returns 0x00 (0001ms, 1350ms total)
T1F94 004:739 JLINK_ReadMem (0x40048014, 0x0004 Bytes, ...) -- CPU is running -- CPU_ReadMem(4 bytes @ 0x40048014) - Data: 01 00 00 00  returns 0x00 (0001ms, 1351ms total)
T1F94 004:740 JLINK_ReadMem (0x40048020, 0x0008 Bytes, ...) -- CPU is running -- CPU_ReadMem(8 bytes @ 0x40048020) - Data: 00 00 00 00 00 00 00 00  returns 0x00 (0001ms, 1352ms total)
T1F94 004:741 JLINK_ReadMem (0x40048028, 0x0004 Bytes, ...) -- CPU is running -- CPU_ReadMem(4 bytes @ 0x40048028) - Data: E8 00 00 00  returns 0x00 (0001ms, 1353ms total)
T1F94 004:742 JLINK_ReadMem (0x40048030, 0x0004 Bytes, ...) -- CPU is running -- CPU_ReadMem(4 bytes @ 0x40048030) - Data: 11 00 00 00  returns 0x00 (0001ms, 1354ms total)
T1F94 004:743 JLINK_ReadMem (0x40048040, 0x000C Bytes, ...) -- CPU is running -- CPU_ReadMem(12 bytes @ 0x40048040) - Data: 01 00 00 00 01 00 00 00 01 00 00 00  returns 0x00 (0001ms, 1355ms total)
T1F94 004:744 JLINK_ReadMem (0x4004804C, 0x0004 Bytes, ...) -- CPU is running -- CPU_ReadMem(4 bytes @ 0x4004804C) - Data: 01 00 00 00  returns 0x00 (0001ms, 1356ms total)
T1F94 004:745 JLINK_ReadMem (0x40048070, 0x0008 Bytes, ...) -- CPU is running -- CPU_ReadMem(8 bytes @ 0x40048070) - Data: 03 00 00 00 01 00 00 00  returns 0x00 (0001ms, 1357ms total)
T1F94 004:746 JLINK_ReadMem (0x40048078, 0x0004 Bytes, ...) -- CPU is running -- CPU_ReadMem(4 bytes @ 0x40048078) - Data: 01 00 00 00  returns 0x00 (0001ms, 1358ms total)
T1F94 004:747 JLINK_ReadMem (0x40048080, 0x0004 Bytes, ...) -- CPU is running -- CPU_ReadMem(4 bytes @ 0x40048080) - Data: 5F 48 01 00  returns 0x00 (0001ms, 1359ms total)
T1F94 004:748 JLINK_ReadMem (0x40048094, 0x0008 Bytes, ...) -- CPU is running -- CPU_ReadMem(8 bytes @ 0x40048094) - Data: 01 00 00 00 00 00 00 00  returns 0x00 (0001ms, 1360ms total)
T1F94 004:749 JLINK_ReadMem (0x4004809C, 0x0004 Bytes, ...) -- CPU is running -- CPU_ReadMem(4 bytes @ 0x4004809C) - Data: 00 00 00 00  returns 0x00 (0001ms, 1361ms total)
T1F94 004:750 JLINK_ReadMem (0x400480AC, 0x0004 Bytes, ...) -- CPU is running -- CPU_ReadMem(4 bytes @ 0x400480AC) - Data: 00 00 00 00  returns 0x00 (0001ms, 1362ms total)
T1F94 004:751 JLINK_ReadMem (0x400480B0, 0x0004 Bytes, ...) -- CPU is running -- CPU_ReadMem(4 bytes @ 0x400480B0) - Data: 01 00 00 00  returns 0x00 (0001ms, 1363ms total)
T1F94 004:752 JLINK_ReadMem (0x400480C0, 0x0008 Bytes, ...) -- CPU is running -- CPU_ReadMem(8 bytes @ 0x400480C0) - Data: 00 00 00 00 00 00 00 00  returns 0x00 (0001ms, 1364ms total)
T1F94 004:753 JLINK_ReadMem (0x400480C8, 0x0004 Bytes, ...) -- CPU is running -- CPU_ReadMem(4 bytes @ 0x400480C8) - Data: 01 00 00 00  returns 0x00 (0001ms, 1365ms total)
T1F94 004:754 JLINK_ReadMem (0x400480D0, 0x0008 Bytes, ...) -- CPU is running -- CPU_ReadMem(8 bytes @ 0x400480D0) - Data: 00 00 00 00 00 00 00 00  returns 0x00 (0001ms, 1366ms total)
T1F94 004:755 JLINK_ReadMem (0x400480D8, 0x0004 Bytes, ...) -- CPU is running -- CPU_ReadMem(4 bytes @ 0x400480D8) - Data: 00 00 00 00  returns 0x00 (0001ms, 1367ms total)
T1F94 004:756 JLINK_ReadMem (0x400480E0, 0x0008 Bytes, ...) -- CPU is running -- CPU_ReadMem(8 bytes @ 0x400480E0) - Data: 00 00 00 00 00 00 00 00  returns 0x00 (0001ms, 1368ms total)
T1F94 004:757 JLINK_ReadMem (0x400480E8, 0x0004 Bytes, ...) -- CPU is running -- CPU_ReadMem(4 bytes @ 0x400480E8) - Data: 00 00 00 00  returns 0x00 (0001ms, 1369ms total)
T1F94 004:758 JLINK_ReadMem (0x40048100, 0x0004 Bytes, ...) -- CPU is running -- CPU_ReadMem(4 bytes @ 0x40048100) - Data: FF FB FF FF  returns 0x00 (0001ms, 1370ms total)
T1F94 004:759 JLINK_ReadMem (0x40048104, 0x0004 Bytes, ...) -- CPU is running -- CPU_ReadMem(4 bytes @ 0x40048104) - Data: FF 03 00 00  returns 0x00 (0001ms, 1371ms total)
T1F94 004:760 JLINK_ReadMem (0x40048150, 0x0004 Bytes, ...) -- CPU is running -- CPU_ReadMem(4 bytes @ 0x40048150) - Data: 00 00 00 00  returns 0x00 (0001ms, 1372ms total)
T1F94 004:761 JLINK_ReadMem (0x40048154, 0x0004 Bytes, ...) -- CPU is running -- CPU_ReadMem(4 bytes @ 0x40048154) - Data: 04 00 00 00  returns 0x00 (0001ms, 1373ms total)
T1F94 004:762 JLINK_ReadMem (0x40048200, 0x0004 Bytes, ...) -- CPU is running -- CPU_ReadMem(4 bytes @ 0x40048200) - Data: 00 00 00 00  returns 0x00 (0001ms, 1374ms total)
T1F94 004:763 JLINK_ReadMem (0x40048204, 0x0004 Bytes, ...) -- CPU is running -- CPU_ReadMem(4 bytes @ 0x40048204) - Data: 00 00 00 00  returns 0x00 (0001ms, 1375ms total)
T1F94 004:764 JLINK_ReadMem (0x4004820C, 0x0008 Bytes, ...) -- CPU is running -- CPU_ReadMem(8 bytes @ 0x4004820C) - Data: 00 00 00 00 00 00 00 00  returns 0x00 (0001ms, 1376ms total)
T1F94 004:765 JLINK_ReadMem (0x40048214, 0x0004 Bytes, ...) -- CPU is running -- CPU_ReadMem(4 bytes @ 0x40048214) - Data: 00 00 00 00  returns 0x00 (0001ms, 1377ms total)
T1F94 004:766 JLINK_ReadMem (0x4004821C, 0x0004 Bytes, ...) -- CPU is running -- CPU_ReadMem(4 bytes @ 0x4004821C) - Data: 00 00 00 00  returns 0x00 (0001ms, 1378ms total)
T1F94 004:767 JLINK_ReadMem (0x40048230, 0x0008 Bytes, ...) -- CPU is running -- CPU_ReadMem(8 bytes @ 0x40048230) - Data: 00 00 00 00 F0 FD 00 00  returns 0x00 (0001ms, 1379ms total)
T1F94 004:768 JLINK_ReadMem (0x40048238, 0x0004 Bytes, ...) -- CPU is running -- CPU_ReadMem(4 bytes @ 0x40048238) - Data: 50 F8 00 00  returns 0x00 (0001ms, 1380ms total)
T1F94 004:769 JLINK_ReadMem (0x400483F4, 0x0004 Bytes, ...) -- CPU is running -- CPU_ReadMem(4 bytes @ 0x400483F4) - Data: 2B 00 00 3D  returns 0x00 (0001ms, 1381ms total)
T1F94 004:771 JLINK_ReadMem (0x40014000, 0x002C Bytes, ...) -- CPU is running -- CPU_ReadMem(44 bytes @ 0x40014000) - Data: 00 00 00 00 00 00 00 00 00 00 00 00 00 00 00 00 ...  returns 0x00 (0001ms, 1382ms total)
T1F94 004:772 JLINK_ReadMem (0x4001402C, 0x0004 Bytes, ...) -- CPU is running -- CPU_ReadMem(4 bytes @ 0x4001402C) - Data: 00 00 00 00  returns 0x00 (0001ms, 1383ms total)
T1F94 004:773 JLINK_ReadMem (0x4001403C, 0x0004 Bytes, ...) -- CPU is running -- CPU_ReadMem(4 bytes @ 0x4001403C) - Data: 00 00 00 00  returns 0x00 (0001ms, 1384ms total)
T1F94 004:774 JLINK_ReadMem (0x40014070, 0x0004 Bytes, ...) -- CPU is running -- CPU_ReadMem(4 bytes @ 0x40014070) - Data: 00 00 00 00  returns 0x00 (0001ms, 1385ms total)
T1F94 004:775 JLINK_ReadMem (0x40014074, 0x0004 Bytes, ...) -- CPU is running -- CPU_ReadMem(4 bytes @ 0x40014074) - Data: 00 00 00 00  returns 0x00 (0001ms, 1386ms total)
T1F94 004:776 JLINK_ReadMem (0x50033FFC, 0x0004 Bytes, ...) -- CPU is running -- CPU_ReadMem(4 bytes @ 0x50033FFC) - Data: 3F 00 00 00  returns 0x00 (0001ms, 1387ms total)
T1F94 004:777 JLINK_ReadMem (0x50038000, 0x0018 Bytes, ...) -- CPU is running -- CPU_ReadMem(24 bytes @ 0x50038000) - Data: 0F 00 00 00 00 00 00 00 00 00 00 00 00 00 00 00 ...  returns 0x00 (0001ms, 1388ms total)
T1F94 004:778 JLINK_ReadMem (0x50038018, 0x0004 Bytes, ...) -- CPU is running -- CPU_ReadMem(4 bytes @ 0x50038018) - Data: 00 00 00 00  returns 0x00 (0001ms, 1389ms total)
T1F94 004:779 JLINK_ReadMem (0x50013FFC, 0x0004 Bytes, ...) -- CPU is running -- CPU_ReadMem(4 bytes @ 0x50013FFC) - Data: D7 0F 00 00  returns 0x00 (0001ms, 1390ms total)
T1F94 004:780 JLINK_ReadMem (0x50018000, 0x0018 Bytes, ...) -- CPU is running -- CPU_ReadMem(24 bytes @ 0x50018000) - Data: E0 07 00 00 00 00 00 00 00 00 00 00 10 00 00 00 ...  returns 0x00 (0001ms, 1391ms total)
T1F94 004:781 JLINK_ReadMem (0x50018018, 0x0004 Bytes, ...) -- CPU is running -- CPU_ReadMem(4 bytes @ 0x50018018) - Data: 00 00 00 00  returns 0x00 (0001ms, 1392ms total)
T050C 004:782 JLINK_IsHalted()  returns FALSE (0001ms, 1393ms total)
T050C 004:883 JLINK_IsHalted()  returns FALSE (0001ms, 1393ms total)
T050C 004:984 JLINK_IsHalted()  returns FALSE (0001ms, 1393ms total)
T050C 005:085 JLINK_IsHalted()  returns FALSE (0001ms, 1393ms total)
T050C 005:186 JLINK_IsHalted()  returns FALSE (0001ms, 1393ms total)
T050C 005:287 JLINK_ReadMemU32(0xE0001004, 0x0001 Items, ...) -- CPU is running -- CPU_ReadMem(4 bytes @ 0xE0001004) - Data: EE 5B EC 06  returns 0x01 (0001ms, 1393ms total)
T1F94 005:289 JLINK_ReadMem (0x10000030, 0x0004 Bytes, ...) -- CPU is running -- CPU_ReadMem(4 bytes @ 0x10000030) - Data: 00 A2 4A 04  returns 0x00 (0001ms, 1394ms total)
T1F94 005:290 JLINK_ReadMem (0x40048000, 0x0014 Bytes, ...) -- CPU is running -- CPU_ReadMem(20 bytes @ 0x40048000) - Data: 02 00 00 00 00 00 00 00 25 00 00 00 01 00 00 00 ...  returns 0x00 (0001ms, 1395ms total)
T1F94 005:291 JLINK_ReadMem (0x40048014, 0x0004 Bytes, ...) -- CPU is running -- CPU_ReadMem(4 bytes @ 0x40048014) - Data: 01 00 00 00  returns 0x00 (0001ms, 1396ms total)
T1F94 005:292 JLINK_ReadMem (0x40048020, 0x0008 Bytes, ...) -- CPU is running -- CPU_ReadMem(8 bytes @ 0x40048020) - Data: 00 00 00 00 00 00 00 00  returns 0x00 (0001ms, 1397ms total)
T1F94 005:293 JLINK_ReadMem (0x40048028, 0x0004 Bytes, ...) -- CPU is running -- CPU_ReadMem(4 bytes @ 0x40048028) - Data: E8 00 00 00  returns 0x00 (0001ms, 1398ms total)
T1F94 005:294 JLINK_ReadMem (0x40048030, 0x0004 Bytes, ...) -- CPU is running -- CPU_ReadMem(4 bytes @ 0x40048030) - Data: 11 00 00 00  returns 0x00 (0001ms, 1399ms total)
T1F94 005:295 JLINK_ReadMem (0x40048040, 0x000C Bytes, ...) -- CPU is running -- CPU_ReadMem(12 bytes @ 0x40048040) - Data: 01 00 00 00 01 00 00 00 01 00 00 00  returns 0x00 (0001ms, 1400ms total)
T1F94 005:296 JLINK_ReadMem (0x4004804C, 0x0004 Bytes, ...) -- CPU is running -- CPU_ReadMem(4 bytes @ 0x4004804C) - Data: 01 00 00 00  returns 0x00 (0001ms, 1401ms total)
